
T03EC 000:326 SEGGER J-Link V4.36l Log File (0000ms, 0324ms total)
T03EC 000:326 DLL Compiled: Dec  2 2011 18:52:36 (0000ms, 0324ms total)
T03EC 000:326 Logging started @ 2012-11-10 09:10 (0000ms, 0324ms total)
T03EC 000:326 JLINK_SetWarnOutHandler(...) (0000ms, 0324ms total)
T03EC 000:326 JLINK_OpenEx(...)
Firmware: J-Link ARM V8 compiled Dec  1 2015 11:42:48
Hardware: V8.00
S/N: 20080643
Feature(s): RDI,FlashDL,FlashBP,JFlash,GDBFull  returns O.K. (0067ms, 0324ms total)
T03EC 000:394 JLINK_SetErrorOutHandler(...) (0000ms, 0391ms total)
T03EC 000:395 JLINK_ExecCommand("Device = LPC1768", ...)
                JLINK_ExecCommand("map ram 0x10000000 - 0x10007FFF", ...)  returns 0x00 (0000ms, 0000ms total)
                JLINK_AddMirrorAreaEx(Addr = 0x00000000, Size = 0x00000000) (0000ms, 0000ms total)
              Device "LPC1768" selected (512 KB flash, 32 KB RAM).  returns 0x00 (0001ms, 0391ms total)
T03EC 000:398 JLINK_ExecCommand("ProjectFile = "J:\lpc1768\ÊµÑéÀý³Ì-Example\miniDK\USBDevice MassStorage\MDK-ARM\JLinkSettings.ini"", ...)  returns 0x00 (0001ms, 0392ms total)
T03EC 000:401 JLINK_ExecCommand("DisableConnectionTimeout", ...)  returns 0x00 (0000ms, 0393ms total)
T03EC 000:402 JLINK_TIF_Select(JLINKARM_TIF_JTAG)  returns 0x00 (0000ms, 0393ms total)
T03EC 000:402 JLINK_SetSpeed(2000) (0001ms, 0393ms total)
T03EC 000:403 JLINK_GetHardwareVersion()  returns 0x13880 (0000ms, 0394ms total)
T03EC 000:403 JLINK_GetDLLVersion()  returns 43612 (0000ms, 0394ms total)
T03EC 000:403 JLINK_GetFirmwareString(...) (0000ms, 0394ms total)
T03EC 000:404 JLINK_GetDLLVersion()  returns 43612 (0000ms, 0395ms total)
T03EC 000:404 JLINK_GetCompileDateTime() (0000ms, 0395ms total)
T03EC 000:404 JLINK_GetFirmwareString(...) (0000ms, 0395ms total)
T03EC 000:404 JLINK_GetHardwareVersion()  returns 0x13880 (0000ms, 0395ms total)
T03EC 000:404 JLINK_GetIdData(...) >0x2F8 JTAG>TotalIRLen = 4, IRPrint = 0x01 >0x30 JTAG> >0x210 JTAG> >0x78 JTAG> >0x40 JTAG> >0x40 JTAG> >0x48 JTAG> >0x40 JTAG> >0x40 JTAG> >0x40 JTAG> >0x48 JTAG> >0x40 JTAG> >0x48 JTAG> >0x40 JTAG> >0x40 JTAG> >0x40 JTAG> >0x30 JTAG> >0x40 JTAG> >0x48 JTAG> >0x40 JTAG> >0x30 JTAG> >0x78 JTAG> >0x40 JTAG> >0x40 JTAG> >0x48 JTAG> >0x40 JTAG> >0x40 JTAG> >0x40 JTAG> >0x48 JTAG> >0x40 JTAG> >0x40 JTAG> >0x30 JTAG> >0x40 JTAG> >0x40 JTAG> >0x40 JTAG> >0x40 JTAG>
 >0x40 JTAG> >0x48 JTAG> >0x40 JTAG> >0x78 JTAG> >0x40 JTAG> >0x30 JTAG> >0x40 JTAG> >0x40 JTAG> >0x40 JTAG> >0x40 JTAG> >0x40 JTAG> >0x48 JTAG> >0x40 JTAG> >0x78 JTAG> >0x40 JTAG> >0x30 JTAG> >0x40 JTAG> >0x48 JTAG> >0x40 JTAG> >0x40 JTAG> >0x40 JTAG> >0x30 JTAG> >0x40 JTAG> >0x48 JTAG> >0x40 JTAG>Found Cortex-M3 r2p0, Little endian. >0x48 JTAG> >0x48 JTAG> >0x40 JTAG> >0x40 JTAG> >0x30 JTAG> >0x30 JTAG> >0x48 JTAG> >0x40 JTAG> >0x78 JTAG> >0x40 JTAG> >0x30 JTAG> >0x40 JTAG> >0x48 JTAG> >0x40 JTAG>
 >0x40 JTAG> >0x40 JTAG> >0x30 JTAG> >0x40 JTAG> >0x48 JTAG> >0x40 JTAG>TPIU fitted. >0x40 JTAG> >0x40 JTAG> >0x30 JTAG> >0x40 JTAG> >0x48 JTAG> >0x40 JTAG>ETM fitted. >0x40 JTAG> >0x40 JTAG> >0x30 JTAG> >0x40 JTAG> >0x48 JTAG> >0x40 JTAG> >0x40 JTAG> >0x40 JTAG> >0x30 JTAG> >0x40 JTAG> >0x48 JTAG> >0x40 JTAG>  FPUnit: 6 code (BP) slots and 2 literal slots >0x40 JTAG> >0x40 JTAG> >0x30 JTAG> >0x40 JTAG> >0x48 JTAG> >0x40 JTAG> >0x40 JTAG> >0x40 JTAG> >0x30 JTAG> >0x40 JTAG> >0x48 JTAG> >0x40 JTAG>
 ScanLen=4 NumDevices=1 aId[0]=0x4BA00477 aIrRead[0]=0 aScanLen[0]=0 aScanRead[0]=0 (0227ms, 0395ms total)
T03EC 000:631 JLINK_JTAG_GetDeviceID(DeviceIndex = 0)  returns 0x4BA00477 (0000ms, 0622ms total)
T03EC 000:631 JLINK_JTAG_GetDeviceInfo(DeviceIndex = 0)  returns 0x00 (0000ms, 0622ms total)
T03EC 000:631 JLINK_GetDebugInfo(0x100) -- Value=0xE00FF003  returns 0x00 (0000ms, 0622ms total)
T03EC 000:631 JLINK_ReadMem (0xE00FFFF0, 0x0010 Bytes, ...) -- CPU is running >0x290 JTAG> -- Data:  0D 00 00 00 10 00 00 00 05 00 00 00 B1 00 00 00  returns 0x00 (0003ms, 0622ms total)
T03EC 000:634 JLINK_ReadMem (0xE00FFFD0, 0x0020 Bytes, ...) -- CPU is running >0x370 JTAG> -- Data:  00 00 00 00 00 00 00 00 00 00 00 00 00 00 00 00 ...  returns 0x00 (0003ms, 0625ms total)
T03EC 000:637 JLINK_ReadMem (0xE00FF000, 0x0018 Bytes, ...) -- CPU is running >0x2F8 JTAG> -- Data:  03 F0 F0 FF 03 20 F0 FF 03 30 F0 FF 03 10 F0 FF ...  returns 0x00 (0003ms, 0628ms total)
T03EC 000:640 JLINK_ReadMemU32(0xE000ED00, 0x0001 Items, ...) -- CPU is running >0x1D8 JTAG> -- Data:  30 C2 2F 41  returns 0x01 (0003ms, 0631ms total)
T03EC 000:643 JLINK_SetResetType(JLINKARM_RESET_TYPE_NORMAL)  returns ??? (0000ms, 0634ms total)
T03EC 000:643 JLINK_Reset() >0x2F8 JTAG>TotalIRLen = 4, IRPrint = 0x01 >0x30 JTAG> >0x210 JTAG> >0x78 JTAG> >0x40 JTAG> >0x40 JTAG> >0x48 JTAG> >0x40 JTAG> >0x40 JTAG> >0x40 JTAG> >0x48 JTAG> >0x40 JTAG> >0x48 JTAG> >0x40 JTAG> >0x40 JTAG> >0x40 JTAG> >0x30 JTAG> >0x40 JTAG> >0x48 JTAG> >0x40 JTAG> >0x30 JTAG> >0x78 JTAG> >0x40 JTAG> >0x40 JTAG> >0x48 JTAG> >0x40 JTAG> >0x40 JTAG> >0x40 JTAG> >0x48 JTAG> >0x40 JTAG> >0x40 JTAG> >0x30 JTAG> >0x40 JTAG> >0x40 JTAG> >0x40 JTAG> >0x40 JTAG> >0x40 JTAG>
 >0x48 JTAG> >0x40 JTAG> >0x78 JTAG> >0x40 JTAG> >0x30 JTAG> >0x40 JTAG> >0x40 JTAG> >0x40 JTAG> >0x40 JTAG> >0x40 JTAG> >0x48 JTAG> >0x40 JTAG> >0x78 JTAG> >0x40 JTAG> >0x30 JTAG> >0x40 JTAG> >0x48 JTAG> >0x40 JTAG> >0x40 JTAG> >0x40 JTAG> >0x30 JTAG> >0x40 JTAG> >0x48 JTAG> >0x40 JTAG>Found Cortex-M3 r2p0, Little endian. >0x48 JTAG> >0x48 JTAG> >0x40 JTAG> >0x40 JTAG> >0x30 JTAG> >0x30 JTAG> >0x48 JTAG> >0x40 JTAG> >0x78 JTAG> >0x40 JTAG> >0x30 JTAG> >0x40 JTAG> >0x48 JTAG> >0x40 JTAG> >0x40 JTAG>
 >0x40 JTAG> >0x30 JTAG> >0x40 JTAG> >0x48 JTAG> >0x40 JTAG>TPIU fitted. >0x40 JTAG> >0x40 JTAG> >0x30 JTAG> >0x40 JTAG> >0x48 JTAG> >0x40 JTAG>ETM fitted. >0x40 JTAG> >0x40 JTAG> >0x30 JTAG> >0x40 JTAG> >0x48 JTAG> >0x40 JTAG> >0x40 JTAG> >0x40 JTAG> >0x30 JTAG> >0x40 JTAG> >0x48 JTAG> >0x40 JTAG>  FPUnit: 6 code (BP) slots and 2 literal slots >0x40 JTAG> >0x40 JTAG> >0x30 JTAG> >0x40 JTAG> >0x48 JTAG> >0x40 JTAG> >0x40 JTAG> >0x40 JTAG> >0x30 JTAG> >0x40 JTAG> >0x48 JTAG> >0x40 JTAG> >0x40 JTAG>
 >0x78 JTAG> >0x40 JTAG> >0x40 JTAG> >0x48 JTAG> >0x40 JTAG> >0x40 JTAG> >0x40 JTAG> >0x48 JTAG> >0x40 JTAG> >0x40 JTAG> >0x30 JTAG> >0x40 JTAG> >0x40 JTAG> >0x40 JTAG> >0x40 JTAG> >0x40 JTAG> >0x48 JTAG> >0x40 JTAG> >0x78 JTAG> >0x40 JTAG> >0x30 JTAG> >0x40 JTAG> >0x40 JTAG> >0x40 JTAG> >0x40 JTAG> >0x40 JTAG> >0x48 JTAG> >0x40 JTAG> >0x78 JTAG> >0x40 JTAG> >0x30 JTAG> >0x40 JTAG> >0x48 JTAG> >0x40 JTAG> >0x40 JTAG> >0x40 JTAG> >0x30 JTAG> >0x40 JTAG> >0x48 JTAG> >0x40 JTAG>
Found Cortex-M3 r2p0, Little endian. >0x48 JTAG> >0x48 JTAG> >0x40 JTAG> >0x40 JTAG> >0x30 JTAG> >0x30 JTAG> >0x48 JTAG> >0x40 JTAG> >0x78 JTAG> >0x40 JTAG> >0x30 JTAG> >0x40 JTAG> >0x48 JTAG> >0x40 JTAG> >0x40 JTAG> >0x40 JTAG> >0x30 JTAG> >0x40 JTAG> >0x48 JTAG> >0x40 JTAG>TPIU fitted. >0x40 JTAG> >0x40 JTAG> >0x30 JTAG> >0x40 JTAG> >0x48 JTAG> >0x40 JTAG>ETM fitted. >0x40 JTAG> >0x40 JTAG> >0x30 JTAG> >0x40 JTAG> >0x48 JTAG> >0x40 JTAG> >0x40 JTAG> >0x40 JTAG> >0x30 JTAG> >0x40 JTAG> >0x48 JTAG>
 >0x40 JTAG>  FPUnit: 6 code (BP) slots and 2 literal slots >0x40 JTAG> >0x40 JTAG> >0x30 JTAG> >0x40 JTAG> >0x48 JTAG> >0x40 JTAG> >0x40 JTAG> >0x40 JTAG> >0x30 JTAG> >0x40 JTAG> >0x48 JTAG> >0x40 JTAG> -- CPU is running >0x1E0 JTAG> -- CPU is running >0x1D0 JTAG> -- CPU is running >0x208 JTAG> -- CPU is running >0x1D8 JTAG> -- CPU is running >0x1D8 JTAG> -- CPU is running >0x1D0 JTAG> -- CPU is running >0x1D0 JTAG> -- CPU is running >0x1D8 JTAG> >0x170 JTAG> >0x1598 JTAG> >0x40 JTAG> >0x40 JTAG>
 >0x30 JTAG> >0x40 JTAG> >0x48 JTAG> >0x40 JTAG> >0x1D0 JTAG> >0x1D0 JTAG> >0x1D0 JTAG> >0x1D0 JTAG> >0x1D0 JTAG> >0x1D0 JTAG> >0x1D0 JTAG> >0x1D0 JTAG> >0x1D0 JTAG> >0x1D0 JTAG> >0x1D0 JTAG> >0x1D0 JTAG> >0x1D0 JTAG> >0x1D0 JTAG> >0x1D0 JTAG> >0x1D0 JTAG> >0x1D0 JTAG> >0x1D0 JTAG> >0x1D0 JTAG> >0x1D0 JTAG> >0x1D0 JTAG> >0x218 JTAG> >0x218 JTAG> >0x170 JTAG> >0x1598 JTAG> >0x1D0 JTAG> >0x1D0 JTAG> >0x1D8 JTAG> >0x1D8 JTAG> >0x1D8 JTAG> >0x1D8 JTAG> >0x1D8 JTAG> >0x1D8 JTAG> >0x1D8 JTAG> >0x1D8 JTAG>
 >0x1D0 JTAG> >0x1D0 JTAG> >0x1D0 JTAG> >0x1D0 JTAG> >0x1D0 JTAG> >0x1D0 JTAG> >0x1D0 JTAG> >0x218 JTAG> >0x218 JTAG> >0x170 JTAG> >0x1598 JTAG>
                JLINK_ReadMemHW(0x400FC040, 0x0004 Bytes, ...) >0x1D8 JTAG> -- Data:  01 00 00 00  returns 0x00 (0004ms, 0000ms total)
               -- MA0 is in flash -- Unmirror addr 0x000000E0 >0x1D0 JTAG> >0x1D0 JTAG> >0x1D0 JTAG> >0x1D0 JTAG> >0x1D0 JTAG> >0x1D0 JTAG> >0x1D0 JTAG> >0x06 JTAG> (0827ms, 0634ms total)
T03EC 001:471 JLINK_ReadReg(R15)  returns 0x000000E0 (0000ms, 1461ms total)
T03EC 001:471 JLINK_ReadReg(XPSR)  returns 0x61000000 (0000ms, 1461ms total)
T03EC 001:471 JLINK_Halt()  returns 0x00 (0000ms, 1461ms total)
T03EC 001:471 JLINK_IsHalted()  returns TRUE (0000ms, 1461ms total)
T03EC 001:471 JLINK_ReadMemU32(0xE000EDF0, 0x0001 Items, ...) >0x1D8 JTAG> -- Data:  03 00 03 00  returns 0x01 (0003ms, 1461ms total)
T03EC 001:474 JLINK_WriteU32(0xE000EDF0, 0xA05F0003) >0x1D0 JTAG> -- Invalidate MA0 status  returns 0x00 (0003ms, 1464ms total)
T03EC 001:477 JLINK_WriteU32(0xE000EDFC, 0x01000000) >0x1D0 JTAG>  returns 0x00 (0003ms, 1467ms total)
T03EC 001:480 JLINK_GetHWStatus(...)  returns 0x00 (0001ms, 1470ms total)
T03EC 001:481 JLINK_GetNumBPUnits(Type = 0xFFFFFF00)  returns 0x06 (0000ms, 1471ms total)
T03EC 001:481 JLINK_GetNumBPUnits(Type = 0xF0)  returns 0x2000 (0000ms, 1471ms total)
T03EC 001:481 JLINK_GetNumWPUnits()  returns 0x04 (0000ms, 1471ms total)
T03EC 001:481 JLINK_GetSpeed()  returns 0x7D0 (0001ms, 1471ms total)
T03EC 001:482 JLINK_ReadMemU32(0xE000E004, 0x0001 Items, ...) >0x1D8 JTAG> -- Data:  01 00 00 00  returns 0x01 (0002ms, 1472ms total)
T03EC 001:484 JLINK_ReadMemU32(0xE000E004, 0x0001 Items, ...) >0x1D8 JTAG> -- Data:  01 00 00 00  returns 0x01 (0003ms, 1474ms total)
T03EC 001:487 JLINK_WriteMem(0xE0001000, 0x001C Bytes, ...) -- Data:  01 00 00 00 00 00 00 00 00 00 00 00 00 00 00 00 ... >0x2F0 JTAG>  returns 0x1C (0003ms, 1477ms total)
T03EC 001:490 JLINK_ReadMem (0xE0001000, 0x001C Bytes, ...) >0x338 JTAG> -- Data:  01 00 00 40 00 00 00 00 00 00 00 00 00 00 00 00 ...  returns 0x00 (0004ms, 1480ms total)
T03EC 001:494 JLINK_ReadReg(R15)  returns 0x000000E0 (0000ms, 1484ms total)
T03EC 001:494 JLINK_ReadReg(XPSR)  returns 0x61000000 (0000ms, 1484ms total)
T03EC 001:519 JLINK_WriteU8(0x400FC040, 0x01) >0x1D0 JTAG>  returns 0xFFFFFFFF (0002ms, 1484ms total)
T03EC 001:652 JLINK_SetResetType(JLINKARM_RESET_TYPE_NORMAL)  returns ??? (0000ms, 1486ms total)
T03EC 001:652 JLINK_Reset() >0x2F8 JTAG>TotalIRLen = 4, IRPrint = 0x01 >0x30 JTAG> >0x210 JTAG> >0x78 JTAG> >0x40 JTAG> >0x40 JTAG> >0x48 JTAG> >0x40 JTAG> >0x40 JTAG> >0x40 JTAG> >0x48 JTAG> >0x40 JTAG> >0x48 JTAG> >0x40 JTAG> >0x40 JTAG> >0x40 JTAG> >0x30 JTAG> >0x40 JTAG> >0x48 JTAG> >0x40 JTAG> >0x30 JTAG> >0x78 JTAG> >0x40 JTAG> >0x40 JTAG> >0x48 JTAG> >0x40 JTAG> >0x40 JTAG> >0x40 JTAG> >0x48 JTAG> >0x40 JTAG> >0x40 JTAG> >0x30 JTAG> >0x40 JTAG> >0x40 JTAG> >0x40 JTAG> >0x40 JTAG> >0x40 JTAG>
 >0x48 JTAG> >0x40 JTAG> >0x78 JTAG> >0x40 JTAG> >0x30 JTAG> >0x40 JTAG> >0x40 JTAG> >0x40 JTAG> >0x40 JTAG> >0x40 JTAG> >0x48 JTAG> >0x40 JTAG> >0x78 JTAG> >0x40 JTAG> >0x30 JTAG> >0x40 JTAG> >0x48 JTAG> >0x40 JTAG> >0x40 JTAG> >0x40 JTAG> >0x30 JTAG> >0x40 JTAG> >0x48 JTAG> >0x40 JTAG>Found Cortex-M3 r2p0, Little endian. >0x48 JTAG> >0x48 JTAG> >0x40 JTAG> >0x40 JTAG> >0x30 JTAG> >0x30 JTAG> >0x48 JTAG> >0x40 JTAG> >0x78 JTAG> >0x40 JTAG> >0x30 JTAG> >0x40 JTAG> >0x48 JTAG> >0x40 JTAG> >0x40 JTAG>
 >0x40 JTAG> >0x30 JTAG> >0x40 JTAG> >0x48 JTAG> >0x40 JTAG>TPIU fitted. >0x40 JTAG> >0x40 JTAG> >0x30 JTAG> >0x40 JTAG> >0x48 JTAG> >0x40 JTAG>ETM fitted. >0x40 JTAG> >0x40 JTAG> >0x30 JTAG> >0x40 JTAG> >0x48 JTAG> >0x40 JTAG> >0x40 JTAG> >0x40 JTAG> >0x30 JTAG> >0x40 JTAG> >0x48 JTAG> >0x40 JTAG>  FPUnit: 6 code (BP) slots and 2 literal slots >0x40 JTAG> >0x40 JTAG> >0x30 JTAG> >0x40 JTAG> >0x48 JTAG> >0x40 JTAG> >0x40 JTAG> >0x40 JTAG> >0x30 JTAG> >0x40 JTAG> >0x48 JTAG> >0x40 JTAG> >0x40 JTAG>
 >0x78 JTAG> >0x40 JTAG> >0x40 JTAG> >0x48 JTAG> >0x40 JTAG> >0x40 JTAG> >0x40 JTAG> >0x48 JTAG> >0x40 JTAG> >0x40 JTAG> >0x30 JTAG> >0x40 JTAG> >0x40 JTAG> >0x40 JTAG> >0x40 JTAG> >0x40 JTAG> >0x48 JTAG> >0x40 JTAG> >0x78 JTAG> >0x40 JTAG> >0x30 JTAG> >0x40 JTAG> >0x40 JTAG> >0x40 JTAG> >0x40 JTAG> >0x40 JTAG> >0x48 JTAG> >0x40 JTAG> >0x78 JTAG> >0x40 JTAG> >0x30 JTAG> >0x40 JTAG> >0x48 JTAG> >0x40 JTAG> >0x40 JTAG> >0x40 JTAG> >0x30 JTAG> >0x40 JTAG> >0x48 JTAG> >0x40 JTAG>
Found Cortex-M3 r2p0, Little endian. >0x48 JTAG> >0x48 JTAG> >0x40 JTAG> >0x40 JTAG> >0x30 JTAG> >0x30 JTAG> >0x48 JTAG> >0x40 JTAG> >0x78 JTAG> >0x40 JTAG> >0x30 JTAG> >0x40 JTAG> >0x48 JTAG> >0x40 JTAG> >0x40 JTAG> >0x40 JTAG> >0x30 JTAG> >0x40 JTAG> >0x48 JTAG> >0x40 JTAG>TPIU fitted. >0x40 JTAG> >0x40 JTAG> >0x30 JTAG> >0x40 JTAG> >0x48 JTAG> >0x40 JTAG>ETM fitted. >0x40 JTAG> >0x40 JTAG> >0x30 JTAG> >0x40 JTAG> >0x48 JTAG> >0x40 JTAG> >0x40 JTAG> >0x40 JTAG> >0x30 JTAG> >0x40 JTAG> >0x48 JTAG>
 >0x40 JTAG>  FPUnit: 6 code (BP) slots and 2 literal slots >0x40 JTAG> >0x40 JTAG> >0x30 JTAG> >0x40 JTAG> >0x48 JTAG> >0x40 JTAG> >0x40 JTAG> >0x40 JTAG> >0x30 JTAG> >0x40 JTAG> >0x48 JTAG> >0x40 JTAG> >0x1E0 JTAG> >0x1D0 JTAG> >0x208 JTAG> >0x1D8 JTAG> >0x1D8 JTAG> >0x1D0 JTAG> >0x1D0 JTAG> -- CPU is running >0x1D8 JTAG> >0x170 JTAG> >0x1598 JTAG> >0x40 JTAG> >0x40 JTAG> >0x30 JTAG> >0x40 JTAG> >0x48 JTAG> >0x40 JTAG> >0x1D0 JTAG> >0x1D0 JTAG> >0x1D0 JTAG> >0x1D0 JTAG> >0x1D0 JTAG> >0x1D0 JTAG>
 >0x1D0 JTAG> >0x1D0 JTAG> >0x1D0 JTAG> >0x1D0 JTAG> >0x1D0 JTAG> >0x1D0 JTAG> >0x1D0 JTAG> >0x1D0 JTAG> >0x1D0 JTAG> >0x1D0 JTAG> >0x1D0 JTAG> >0x1D0 JTAG> >0x1D0 JTAG> >0x1D0 JTAG> >0x1D0 JTAG> >0x218 JTAG> >0x218 JTAG> >0x170 JTAG> >0x1598 JTAG> >0x1D0 JTAG> >0x1D0 JTAG> >0x1D8 JTAG> >0x1D8 JTAG> >0x1D8 JTAG> >0x1D8 JTAG> >0x1D8 JTAG> >0x1D8 JTAG> >0x1D8 JTAG> >0x1D8 JTAG> >0x1D0 JTAG> >0x1D0 JTAG> >0x1D0 JTAG> >0x1D0 JTAG> >0x1D0 JTAG> >0x1D0 JTAG> >0x1D0 JTAG> >0x218 JTAG> >0x218 JTAG> >0x170 JTAG>
 >0x1598 JTAG>
                JLINK_ReadMemHW(0x400FC040, 0x0004 Bytes, ...) >0x1D8 JTAG> -- Data:  01 00 00 00  returns 0x00 (0005ms, 0000ms total)
               -- MA0 is in flash -- Unmirror addr 0x000000E0 >0x1D0 JTAG> >0x1D0 JTAG> >0x1D0 JTAG> >0x1D0 JTAG> >0x1D0 JTAG> >0x1D0 JTAG> >0x1D0 JTAG> >0x06 JTAG> (0824ms, 1486ms total)
T03EC 002:477 JLINK_ReadReg(R15)  returns 0x000000E0 (0000ms, 2310ms total)
T03EC 002:477 JLINK_ReadReg(XPSR)  returns 0x61000000 (0000ms, 2310ms total)
T03EC 002:477 JLINK_ReadMem (0x000000E0, 0x003C Bytes, ...) -- Unmirror addr 0x000000E0 >0x8F8 JTAG> -- Updating CM cache (128 bytes @ 0x000000C0) -- Read from CM cache (60 bytes @ 0x000000E0) -- Data:  06 48 80 47 06 48 00 47 FE E7 FE E7 FE E7 FE E7 ...  returns 0x00 (0005ms, 2310ms total)
T03EC 002:660 JLINK_ReadMem (0x2009C020, 0x0020 Bytes, ...) >0x370 JTAG> -- Data:  00 00 00 00 00 00 00 00 00 00 00 00 00 00 00 00 ...  returns 0x00 (0003ms, 2315ms total)
T03EC 003:457 JLINK_ReadMem (0x00000000, 0x0064 Bytes, ...) -- Unmirror addr 0x00000000
                JLINK_ReadMemHW(0x400FC040, 0x0004 Bytes, ...) >0x1D8 JTAG> -- Data:  01 00 00 00  returns 0x00 (0003ms, 0000ms total)
               >0x8F8 JTAG> -- Updating CM cache (128 bytes @ 0x00000000) -- Read from CM cache (100 bytes @ 0x00000000) -- Data:  E8 25 00 10 E1 00 00 00 E9 00 00 00 EB 00 00 00 ...  returns 0x00 (0010ms, 2318ms total)
T03EC 003:892 JLINK_ReadMem (0x10002578, 0x0064 Bytes, ...) >0xCA8 JTAG> -- Updating C cache (192 bytes @ 0x10002540) -- Read from C cache (100 bytes @ 0x10002578) -- Data:  00 00 00 00 0B 00 00 00 F8 00 00 00 13 36 00 00 ...  returns 0x00 (0005ms, 2328ms total)
T0D08 003:918 JLINK_SetBPEx(Addr = 0x00003718, Type = 0xFFFFFFF2) -- Unmirror addr 0x00003718  returns 0x00000001 (0000ms, 2333ms total)
T0D08 003:918 JLINK_SetBPEx(Addr = 0x00002174, Type = 0xFFFFFFF2) -- Unmirror addr 0x00002174 -- Unmirror addr 0x00003718  returns 0x00000002 (0000ms, 2333ms total)
T0D08 003:918 JLINK_Go() >0x170 JTAG> >0x1D0 JTAG> >0x1D0 JTAG> >0x1D0 JTAG> >0x1D0 JTAG> >0x1D0 JTAG> >0x1D0 JTAG> >0x1D0 JTAG> -- Invalidate MA0 status >0x218 JTAG> >0x218 JTAG> (0023ms, 2333ms total)
T0D08 004:041 JLINK_IsHalted() >0x170 JTAG> >0x1598 JTAG>
                JLINK_ReadMemHW(0x400FC040, 0x0004 Bytes, ...) >0x1D8 JTAG> -- Data:  01 00 00 00  returns 0x00 (0003ms, 0000ms total)
               -- MA0 is in flash -- Unmirror addr 0x00003718 -- Unmirror addr 0x00003718  returns TRUE (0012ms, 2356ms total)
T0D08 004:054 JLINK_Halt()  returns 0x00 (0000ms, 2356ms total)
T0D08 004:054 JLINK_IsHalted()  returns TRUE (0000ms, 2356ms total)
T0D08 004:054 JLINK_IsHalted()  returns TRUE (0000ms, 2356ms total)
T0D08 004:054 JLINK_IsHalted()  returns TRUE (0000ms, 2356ms total)
T0D08 004:054 JLINK_ReadReg(R15)  returns 0x00003718 (0000ms, 2356ms total)
T0D08 004:054 JLINK_ReadReg(XPSR)  returns 0x61000000 (0000ms, 2356ms total)
T0D08 004:054 JLINK_ClrBPEx(BPHandle = 0x00000001)  returns 0x00 (0000ms, 2356ms total)
T0D08 004:054 JLINK_ClrBPEx(BPHandle = 0x00000002)  returns 0x00 (0000ms, 2356ms total)
T0D08 004:054 JLINK_ReadMemU32(0xE000ED30, 0x0001 Items, ...) >0x1D8 JTAG> -- Data:  0F 00 00 00  returns 0x01 (0003ms, 2356ms total)
T0D08 004:057 JLINK_ReadMemU32(0xE0001028, 0x0001 Items, ...) >0x1D8 JTAG> -- Data:  00 00 00 00  returns 0x01 (0003ms, 2359ms total)
T0D08 004:060 JLINK_ReadMemU32(0xE0001038, 0x0001 Items, ...) >0x1D8 JTAG> -- Data:  00 02 00 00  returns 0x01 (0003ms, 2362ms total)
T0D08 004:063 JLINK_ReadMemU32(0xE0001048, 0x0001 Items, ...) >0x1D8 JTAG> -- Data:  00 00 00 00  returns 0x01 (0003ms, 2365ms total)
T0D08 004:066 JLINK_ReadMemU32(0xE0001058, 0x0001 Items, ...) >0x1D8 JTAG> -- Data:  00 00 00 01  returns 0x01 (0003ms, 2368ms total)
T0D08 004:069 JLINK_ReadReg(R0)  returns 0x00003719 (0000ms, 2371ms total)
T0D08 004:069 JLINK_ReadReg(R1)  returns 0x10002808 (0000ms, 2371ms total)
T0D08 004:069 JLINK_ReadReg(R2)  returns 0x00000000 (0001ms, 2371ms total)
T0D08 004:070 JLINK_ReadReg(R3)  returns 0x00002DAD (0000ms, 2372ms total)
T0D08 004:070 JLINK_ReadReg(R4)  returns 0x00004114 (0000ms, 2372ms total)
T0D08 004:070 JLINK_ReadReg(R5)  returns 0x00004114 (0000ms, 2372ms total)
T0D08 004:070 JLINK_ReadReg(R6)  returns 0x12345678 (0000ms, 2372ms total)
T0D08 004:070 JLINK_ReadReg(R7)  returns 0x00000000 (0000ms, 2372ms total)
T0D08 004:070 JLINK_ReadReg(R8)  returns 0x00000000 (0000ms, 2372ms total)
T0D08 004:070 JLINK_ReadReg(R9)  returns 0x100001CC (0000ms, 2372ms total)
T0D08 004:070 JLINK_ReadReg(R10)  returns 0x00000000 (0000ms, 2372ms total)
T0D08 004:070 JLINK_ReadReg(R11)  returns 0x00000000 (0000ms, 2372ms total)
T0D08 004:070 JLINK_ReadReg(R12)  returns 0x00000000 (0000ms, 2372ms total)
T0D08 004:070 JLINK_ReadReg(R13)  returns 0x100025E8 (0000ms, 2372ms total)
T0D08 004:070 JLINK_ReadReg(R14)  returns 0x000001C1 (0000ms, 2372ms total)
T0D08 004:070 JLINK_ReadReg(R15)  returns 0x00003718 (0000ms, 2372ms total)
T0D08 004:070 JLINK_ReadReg(XPSR)  returns 0x61000000 (0000ms, 2372ms total)
T0D08 004:070 JLINK_ReadReg(MSP)  returns 0x100025E8 (0000ms, 2372ms total)
T0D08 004:070 JLINK_ReadReg(PSP)  returns 0x10000800 (0000ms, 2372ms total)
T0D08 004:070 JLINK_ReadReg(CFBP)  returns 0x00000000 (0000ms, 2372ms total)
T03EC 004:071 JLINK_WriteReg(R0, 0x00003719)  returns 0x00 (0000ms, 2372ms total)
T03EC 004:071 JLINK_WriteReg(R1, 0x10002808)  returns 0x00 (0000ms, 2372ms total)
T03EC 004:071 JLINK_WriteReg(R2, 0x00000000)  returns 0x00 (0000ms, 2372ms total)
T03EC 004:071 JLINK_WriteReg(R3, 0x00002DAD)  returns 0x00 (0000ms, 2372ms total)
T03EC 004:071 JLINK_WriteReg(R4, 0x00004114)  returns 0x00 (0000ms, 2372ms total)
T03EC 004:071 JLINK_WriteReg(R5, 0x00004114)  returns 0x00 (0000ms, 2372ms total)
T03EC 004:071 JLINK_WriteReg(R6, 0x12345678)  returns 0x00 (0000ms, 2372ms total)
T03EC 004:071 JLINK_WriteReg(R7, 0x00000000)  returns 0x00 (0000ms, 2372ms total)
T03EC 004:071 JLINK_WriteReg(R8, 0x00000000)  returns 0x00 (0000ms, 2372ms total)
T03EC 004:071 JLINK_WriteReg(R9, 0x100001CC)  returns 0x00 (0000ms, 2372ms total)
T03EC 004:071 JLINK_WriteReg(R10, 0x00000000)  returns 0x00 (0000ms, 2372ms total)
T03EC 004:071 JLINK_WriteReg(R11, 0x00000000)  returns 0x00 (0000ms, 2372ms total)
T03EC 004:071 JLINK_WriteReg(R12, 0x00000000)  returns 0x00 (0000ms, 2372ms total)
T03EC 004:071 JLINK_WriteReg(R13, 0x100025E8)  returns 0x00 (0000ms, 2372ms total)
T03EC 004:071 JLINK_WriteReg(R14, 0x000001C1)  returns 0x00 (0000ms, 2372ms total)
T03EC 004:071 JLINK_WriteReg(R15, 0x00003718)  returns 0x00 (0000ms, 2372ms total)
T03EC 004:071 JLINK_WriteReg(XPSR, 0x61000000)  returns 0x00 (0000ms, 2372ms total)
T03EC 004:071 JLINK_WriteReg(MSP, 0x100025E8)  returns 0x00 (0000ms, 2372ms total)
T03EC 004:071 JLINK_WriteReg(PSP, 0x10000800)  returns 0x00 (0000ms, 2372ms total)
T03EC 004:071 JLINK_WriteReg(CFBP, 0x00000000)  returns 0x00 (0000ms, 2372ms total)
T03EC 004:071 JLINK_ReadMem (0x00000000, 0x0004 Bytes, ...) -- Unmirror addr 0x00000000
                JLINK_ReadMemHW(0x400FC040, 0x0004 Bytes, ...) >0x1D8 JTAG> -- Data:  01 00 00 00  returns 0x00 (0002ms, 0000ms total)
               >0x548 JTAG> -- Updating CM cache (64 bytes @ 0x00000000) -- Read from CM cache (4 bytes @ 0x00000000) -- Data:  E8 25 00 10  returns 0x00 (0007ms, 2372ms total)
T03EC 004:078 JLINK_ReadReg(R0)  returns 0x00003719 (0000ms, 2379ms total)
T03EC 004:078 JLINK_ReadReg(R1)  returns 0x10002808 (0000ms, 2379ms total)
T03EC 004:078 JLINK_ReadReg(R2)  returns 0x00000000 (0000ms, 2379ms total)
T03EC 004:078 JLINK_ReadReg(R3)  returns 0x00002DAD (0000ms, 2379ms total)
T03EC 004:078 JLINK_ReadReg(R4)  returns 0x00004114 (0000ms, 2379ms total)
T03EC 004:078 JLINK_ReadReg(R5)  returns 0x00004114 (0000ms, 2379ms total)
T03EC 004:078 JLINK_ReadReg(R6)  returns 0x12345678 (0000ms, 2379ms total)
T03EC 004:078 JLINK_ReadReg(R7)  returns 0x00000000 (0000ms, 2379ms total)
T03EC 004:078 JLINK_ReadReg(R8)  returns 0x00000000 (0000ms, 2379ms total)
T03EC 004:078 JLINK_ReadReg(R9)  returns 0x100001CC (0000ms, 2379ms total)
T03EC 004:078 JLINK_ReadReg(R10)  returns 0x00000000 (0000ms, 2379ms total)
T03EC 004:078 JLINK_ReadReg(R11)  returns 0x00000000 (0000ms, 2379ms total)
T03EC 004:078 JLINK_ReadReg(R12)  returns 0x00000000 (0000ms, 2379ms total)
T03EC 004:078 JLINK_ReadReg(R13)  returns 0x100025E8 (0000ms, 2379ms total)
T03EC 004:078 JLINK_ReadReg(R14)  returns 0x000001C1 (0000ms, 2379ms total)
T03EC 004:078 JLINK_ReadReg(R15)  returns 0x00003718 (0000ms, 2379ms total)
T03EC 004:078 JLINK_ReadReg(XPSR)  returns 0x61000000 (0000ms, 2379ms total)
T03EC 004:078 JLINK_ReadReg(MSP)  returns 0x100025E8 (0000ms, 2379ms total)
T03EC 004:078 JLINK_ReadReg(PSP)  returns 0x10000800 (0000ms, 2379ms total)
T03EC 004:078 JLINK_ReadReg(CFBP)  returns 0x00000000 (0000ms, 2379ms total)
T03EC 004:078 JLINK_WriteReg(R0, 0x00003719)  returns 0x00 (0000ms, 2379ms total)
T03EC 004:078 JLINK_WriteReg(R1, 0x10002808)  returns 0x00 (0000ms, 2379ms total)
T03EC 004:078 JLINK_WriteReg(R2, 0x00000000)  returns 0x00 (0001ms, 2379ms total)
T03EC 004:079 JLINK_WriteReg(R3, 0x00002DAD)  returns 0x00 (0000ms, 2380ms total)
T03EC 004:079 JLINK_WriteReg(R4, 0x00004114)  returns 0x00 (0000ms, 2380ms total)
T03EC 004:079 JLINK_WriteReg(R5, 0x00004114)  returns 0x00 (0000ms, 2380ms total)
T03EC 004:079 JLINK_WriteReg(R6, 0x12345678)  returns 0x00 (0000ms, 2380ms total)
T03EC 004:079 JLINK_WriteReg(R7, 0x00000000)  returns 0x00 (0000ms, 2380ms total)
T03EC 004:079 JLINK_WriteReg(R8, 0x00000000)  returns 0x00 (0000ms, 2380ms total)
T03EC 004:079 JLINK_WriteReg(R9, 0x100001CC)  returns 0x00 (0000ms, 2380ms total)
T03EC 004:079 JLINK_WriteReg(R10, 0x00000000)  returns 0x00 (0000ms, 2380ms total)
T03EC 004:079 JLINK_WriteReg(R11, 0x00000000)  returns 0x00 (0000ms, 2380ms total)
T03EC 004:079 JLINK_WriteReg(R12, 0x00000000)  returns 0x00 (0000ms, 2380ms total)
T03EC 004:079 JLINK_WriteReg(R13, 0x100025E8)  returns 0x00 (0000ms, 2380ms total)
T03EC 004:079 JLINK_WriteReg(R14, 0x000001C1)  returns 0x00 (0000ms, 2380ms total)
T03EC 004:079 JLINK_WriteReg(R15, 0x00003718)  returns 0x00 (0000ms, 2380ms total)
T03EC 004:079 JLINK_WriteReg(XPSR, 0x61000000)  returns 0x00 (0000ms, 2380ms total)
T03EC 004:079 JLINK_WriteReg(MSP, 0x100025E8)  returns 0x00 (0000ms, 2380ms total)
T03EC 004:079 JLINK_WriteReg(PSP, 0x10000800)  returns 0x00 (0000ms, 2380ms total)
T03EC 004:079 JLINK_WriteReg(CFBP, 0x00000000)  returns 0x00 (0000ms, 2380ms total)
T03EC 004:079 JLINK_ReadReg(R0)  returns 0x00003719 (0000ms, 2380ms total)
T03EC 004:079 JLINK_ReadReg(R1)  returns 0x10002808 (0000ms, 2380ms total)
T03EC 004:079 JLINK_ReadReg(R2)  returns 0x00000000 (0000ms, 2380ms total)
T03EC 004:079 JLINK_ReadReg(R3)  returns 0x00002DAD (0000ms, 2380ms total)
T03EC 004:079 JLINK_ReadReg(R4)  returns 0x00004114 (0000ms, 2380ms total)
T03EC 004:079 JLINK_ReadReg(R5)  returns 0x00004114 (0000ms, 2380ms total)
T03EC 004:079 JLINK_ReadReg(R6)  returns 0x12345678 (0000ms, 2380ms total)
T03EC 004:079 JLINK_ReadReg(R7)  returns 0x00000000 (0000ms, 2380ms total)
T03EC 004:079 JLINK_ReadReg(R8)  returns 0x00000000 (0000ms, 2380ms total)
T03EC 004:079 JLINK_ReadReg(R9)  returns 0x100001CC (0000ms, 2380ms total)
T03EC 004:079 JLINK_ReadReg(R10)  returns 0x00000000 (0001ms, 2380ms total)
T03EC 004:080 JLINK_ReadReg(R11)  returns 0x00000000 (0000ms, 2381ms total)
T03EC 004:080 JLINK_ReadReg(R12)  returns 0x00000000 (0000ms, 2381ms total)
T03EC 004:080 JLINK_ReadReg(R13)  returns 0x100025E8 (0000ms, 2381ms total)
T03EC 004:080 JLINK_ReadReg(R14)  returns 0x000001C1 (0000ms, 2381ms total)
T03EC 004:080 JLINK_ReadReg(R15)  returns 0x00003718 (0000ms, 2381ms total)
T03EC 004:080 JLINK_ReadReg(XPSR)  returns 0x61000000 (0000ms, 2381ms total)
T03EC 004:080 JLINK_ReadReg(MSP)  returns 0x100025E8 (0000ms, 2381ms total)
T03EC 004:080 JLINK_ReadReg(PSP)  returns 0x10000800 (0000ms, 2381ms total)
T03EC 004:080 JLINK_ReadReg(CFBP)  returns 0x00000000 (0000ms, 2381ms total)
T03EC 004:080 JLINK_ReadMem (0x10002578, 0x0064 Bytes, ...) >0xCA8 JTAG> -- Updating C cache (192 bytes @ 0x10002540) -- Read from C cache (100 bytes @ 0x10002578) -- Data:  00 00 00 00 00 00 00 00 00 00 00 00 00 00 00 00 ...  returns 0x00 (0004ms, 2381ms total)
T03EC 004:085 JLINK_ReadMem (0x2009C020, 0x0020 Bytes, ...) >0x370 JTAG> -- Data:  00 00 00 00 00 00 00 00 00 00 00 00 00 00 00 00 ...  returns 0x00 (0003ms, 2385ms total)
T03EC 105:864 JLINK_SetResetType(JLINKARM_RESET_TYPE_NORMAL)  returns ??? (0000ms, 2388ms total)
T03EC 105:864 JLINK_Reset() >0x2F8 JTAG>TotalIRLen = 4, IRPrint = 0x01 >0x30 JTAG> >0x210 JTAG> >0x78 JTAG> >0x40 JTAG> >0x40 JTAG> >0x48 JTAG> >0x40 JTAG> >0x40 JTAG> >0x40 JTAG> >0x48 JTAG> >0x40 JTAG> >0x48 JTAG> >0x40 JTAG> >0x40 JTAG> >0x40 JTAG> >0x30 JTAG> >0x40 JTAG> >0x48 JTAG> >0x40 JTAG> >0x30 JTAG> >0x78 JTAG> >0x40 JTAG> >0x40 JTAG> >0x48 JTAG> >0x40 JTAG> >0x40 JTAG> >0x40 JTAG> >0x48 JTAG> >0x40 JTAG> >0x40 JTAG> >0x30 JTAG> >0x40 JTAG> >0x40 JTAG> >0x40 JTAG> >0x40 JTAG> >0x40 JTAG>
 >0x48 JTAG> >0x40 JTAG> >0x78 JTAG> >0x40 JTAG> >0x30 JTAG> >0x40 JTAG> >0x40 JTAG> >0x40 JTAG> >0x40 JTAG> >0x40 JTAG> >0x48 JTAG> >0x40 JTAG> >0x78 JTAG> >0x40 JTAG> >0x30 JTAG> >0x40 JTAG> >0x48 JTAG> >0x40 JTAG> >0x40 JTAG> >0x40 JTAG> >0x30 JTAG> >0x40 JTAG> >0x48 JTAG> >0x40 JTAG>Found Cortex-M3 r2p0, Little endian. >0x48 JTAG> >0x48 JTAG> >0x40 JTAG> >0x40 JTAG> >0x30 JTAG> >0x30 JTAG> >0x48 JTAG> >0x40 JTAG> >0x78 JTAG> >0x40 JTAG> >0x30 JTAG> >0x40 JTAG> >0x48 JTAG> >0x40 JTAG> >0x40 JTAG>
 >0x40 JTAG> >0x30 JTAG> >0x40 JTAG> >0x48 JTAG> >0x40 JTAG>TPIU fitted. >0x40 JTAG> >0x40 JTAG> >0x30 JTAG> >0x40 JTAG> >0x48 JTAG> >0x40 JTAG>ETM fitted. >0x40 JTAG> >0x40 JTAG> >0x30 JTAG> >0x40 JTAG> >0x48 JTAG> >0x40 JTAG> >0x40 JTAG> >0x40 JTAG> >0x30 JTAG> >0x40 JTAG> >0x48 JTAG> >0x40 JTAG>  FPUnit: 6 code (BP) slots and 2 literal slots >0x40 JTAG> >0x40 JTAG> >0x30 JTAG> >0x40 JTAG> >0x48 JTAG> >0x40 JTAG> >0x40 JTAG> >0x40 JTAG> >0x30 JTAG> >0x40 JTAG> >0x48 JTAG> >0x40 JTAG> >0x40 JTAG>
 >0x78 JTAG> >0x40 JTAG> >0x40 JTAG> >0x48 JTAG> >0x40 JTAG> >0x40 JTAG> >0x40 JTAG> >0x48 JTAG> >0x40 JTAG> >0x40 JTAG> >0x30 JTAG> >0x40 JTAG> >0x40 JTAG> >0x40 JTAG> >0x40 JTAG> >0x40 JTAG> >0x48 JTAG> >0x40 JTAG> >0x78 JTAG> >0x40 JTAG> >0x30 JTAG> >0x40 JTAG> >0x40 JTAG> >0x40 JTAG> >0x40 JTAG> >0x40 JTAG> >0x48 JTAG> >0x40 JTAG> >0x78 JTAG> >0x40 JTAG> >0x30 JTAG> >0x40 JTAG> >0x48 JTAG> >0x40 JTAG> >0x40 JTAG> >0x40 JTAG> >0x30 JTAG> >0x40 JTAG> >0x48 JTAG> >0x40 JTAG>
Found Cortex-M3 r2p0, Little endian. >0x48 JTAG> >0x48 JTAG> >0x40 JTAG> >0x40 JTAG> >0x30 JTAG> >0x30 JTAG> >0x48 JTAG> >0x40 JTAG> >0x78 JTAG> >0x40 JTAG> >0x30 JTAG> >0x40 JTAG> >0x48 JTAG> >0x40 JTAG> >0x40 JTAG> >0x40 JTAG> >0x30 JTAG> >0x40 JTAG> >0x48 JTAG> >0x40 JTAG>TPIU fitted. >0x40 JTAG> >0x40 JTAG> >0x30 JTAG> >0x40 JTAG> >0x48 JTAG> >0x40 JTAG>ETM fitted. >0x40 JTAG> >0x40 JTAG> >0x30 JTAG> >0x40 JTAG> >0x48 JTAG> >0x40 JTAG> >0x40 JTAG> >0x40 JTAG> >0x30 JTAG> >0x40 JTAG> >0x48 JTAG>
 >0x40 JTAG>  FPUnit: 6 code (BP) slots and 2 literal slots >0x40 JTAG> >0x40 JTAG> >0x30 JTAG> >0x40 JTAG> >0x48 JTAG> >0x40 JTAG> >0x40 JTAG> >0x40 JTAG> >0x30 JTAG> >0x40 JTAG> >0x48 JTAG> >0x40 JTAG> >0x1E0 JTAG> >0x1D0 JTAG> >0x208 JTAG> >0x1D8 JTAG> >0x1D8 JTAG> >0x1D0 JTAG> >0x1D0 JTAG> -- CPU is running >0x1D8 JTAG> >0x170 JTAG> >0x1598 JTAG> >0x40 JTAG> >0x40 JTAG> >0x30 JTAG> >0x40 JTAG> >0x48 JTAG> >0x40 JTAG> >0x1D0 JTAG> >0x1D0 JTAG> >0x1D0 JTAG> >0x1D0 JTAG> >0x1D0 JTAG> >0x1D0 JTAG>
 >0x1D0 JTAG> >0x1D0 JTAG> >0x1D0 JTAG> >0x1D0 JTAG> >0x1D0 JTAG> >0x1D0 JTAG> >0x1D0 JTAG> >0x1D0 JTAG> >0x1D0 JTAG> >0x1D0 JTAG> >0x1D0 JTAG> >0x1D0 JTAG> >0x1D0 JTAG> >0x1D0 JTAG> >0x1D0 JTAG> >0x1D0 JTAG> >0x1D0 JTAG> >0x1D0 JTAG> >0x1D0 JTAG> >0x1D0 JTAG> >0x1D0 JTAG> -- Invalidate MA0 status >0x218 JTAG> >0x218 JTAG> >0x170 JTAG> >0x1598 JTAG> >0x1D0 JTAG> >0x1D0 JTAG> >0x1D8 JTAG> >0x1D8 JTAG> >0x1D8 JTAG> >0x1D8 JTAG> >0x1D8 JTAG> >0x1D8 JTAG> >0x1D8 JTAG> >0x1D8 JTAG> >0x1D0 JTAG> >0x1D0 JTAG>
 >0x1D0 JTAG> >0x1D0 JTAG> >0x1D0 JTAG> >0x1D0 JTAG> >0x1D0 JTAG> >0x218 JTAG> >0x218 JTAG> >0x170 JTAG> >0x1598 JTAG>
                JLINK_ReadMemHW(0x400FC040, 0x0004 Bytes, ...) >0x1D8 JTAG> -- Data:  01 00 00 00  returns 0x00 (0004ms, 0000ms total)
               -- MA0 is in flash -- Unmirror addr 0x000000E0 >0x1D0 JTAG> >0x1D0 JTAG> >0x1D0 JTAG> >0x1D0 JTAG> >0x1D0 JTAG> >0x1D0 JTAG> >0x1D0 JTAG> >0x06 JTAG> (0842ms, 2388ms total)
T03EC 106:706 JLINK_ReadReg(R15)  returns 0x000000E0 (0000ms, 3230ms total)
T03EC 106:706 JLINK_ReadReg(XPSR)  returns 0x61000000 (0000ms, 3230ms total)
T03EC 106:706 JLINK_ReadMem (0x10002578, 0x0064 Bytes, ...) >0xCA8 JTAG> -- Updating C cache (192 bytes @ 0x10002540) -- Read from C cache (100 bytes @ 0x10002578) -- Data:  00 00 00 00 00 00 00 00 00 00 00 00 00 00 00 00 ...  returns 0x00 (0005ms, 3230ms total)
T03EC 106:718 JLINK_ReadMem (0x000000E0, 0x003C Bytes, ...) -- Unmirror addr 0x000000E0 >0x8F8 JTAG> -- Updating CM cache (128 bytes @ 0x000000C0) -- Read from CM cache (60 bytes @ 0x000000E0) -- Data:  06 48 80 47 06 48 00 47 FE E7 FE E7 FE E7 FE E7 ...  returns 0x00 (0004ms, 3235ms total)
T03EC 106:852 JLINK_ReadMem (0x2009C020, 0x0020 Bytes, ...) >0x370 JTAG> -- Data:  00 00 00 00 00 00 00 00 00 00 00 00 00 00 00 00 ...  returns 0x00 (0003ms, 3239ms total)
T0D08 107:573 JLINK_SetBPEx(Addr = 0x00002174, Type = 0xFFFFFFF2) -- Unmirror addr 0x00002174  returns 0x00000003 (0000ms, 3242ms total)
T0D08 107:573 JLINK_Go() >0x170 JTAG> >0x1D0 JTAG> >0x1D0 JTAG> >0x1D0 JTAG> >0x1D0 JTAG> >0x1D0 JTAG> >0x1D0 JTAG> >0x1D0 JTAG> -- Invalidate MA0 status >0x218 JTAG> >0x218 JTAG> (0027ms, 3242ms total)
T0D08 107:701 JLINK_IsHalted() >0x170 JTAG>  returns FALSE (0003ms, 3269ms total)
T0D08 107:804 JLINK_IsHalted() >0x170 JTAG>  returns FALSE (0002ms, 3269ms total)
T0D08 107:907 JLINK_IsHalted() >0x170 JTAG>  returns FALSE (0003ms, 3269ms total)
T0D08 108:010 JLINK_IsHalted() >0x170 JTAG>  returns FALSE (0002ms, 3269ms total)
T0D08 108:113 JLINK_IsHalted() >0x170 JTAG>  returns FALSE (0002ms, 3269ms total)
T0D08 108:215 JLINK_IsHalted() >0x170 JTAG>  returns FALSE (0002ms, 3269ms total)
T0D08 108:318 JLINK_IsHalted() >0x170 JTAG>  returns FALSE (0002ms, 3269ms total)
T0D08 108:420 JLINK_IsHalted() >0x170 JTAG>  returns FALSE (0002ms, 3269ms total)
T0D08 108:523 JLINK_IsHalted() >0x170 JTAG>  returns FALSE (0002ms, 3269ms total)
T0D08 108:625 JLINK_IsHalted() >0x170 JTAG>  returns FALSE (0002ms, 3269ms total)
T0D08 108:728 JLINK_IsHalted() >0x170 JTAG>  returns FALSE (0003ms, 3269ms total)
T0D08 108:831 JLINK_IsHalted() >0x170 JTAG>  returns FALSE (0002ms, 3269ms total)
T0D08 108:934 JLINK_IsHalted() >0x170 JTAG>  returns FALSE (0002ms, 3269ms total)
T0D08 109:037 JLINK_IsHalted() >0x170 JTAG>  returns FALSE (0003ms, 3269ms total)
T0D08 109:140 JLINK_IsHalted() >0x170 JTAG>  returns FALSE (0002ms, 3269ms total)
T0D08 109:243 JLINK_IsHalted() >0x170 JTAG>  returns FALSE (0003ms, 3269ms total)
T0D08 109:346 JLINK_IsHalted() >0x170 JTAG>  returns FALSE (0002ms, 3269ms total)
T0D08 109:449 JLINK_IsHalted() >0x170 JTAG>  returns FALSE (0003ms, 3269ms total)
T0D08 109:552 JLINK_IsHalted() >0x170 JTAG>  returns FALSE (0002ms, 3269ms total)
T0D08 109:655 JLINK_IsHalted() >0x170 JTAG>  returns FALSE (0002ms, 3269ms total)
T0D08 109:757 JLINK_IsHalted() >0x170 JTAG>  returns FALSE (0004ms, 3269ms total)
T0D08 109:862 JLINK_IsHalted() >0x170 JTAG>  returns FALSE (0002ms, 3269ms total)
T0D08 109:964 JLINK_IsHalted() >0x170 JTAG>  returns FALSE (0002ms, 3269ms total)
T0D08 110:067 JLINK_IsHalted() >0x170 JTAG>  returns FALSE (0002ms, 3269ms total)
T0D08 110:169 JLINK_IsHalted() >0x170 JTAG>  returns FALSE (0002ms, 3269ms total)
T0D08 110:272 JLINK_IsHalted() >0x170 JTAG>  returns FALSE (0002ms, 3269ms total)
T0D08 110:374 JLINK_IsHalted() >0x170 JTAG>  returns FALSE (0002ms, 3269ms total)
T0D08 110:477 JLINK_IsHalted() >0x170 JTAG>  returns FALSE (0002ms, 3269ms total)
T0D08 110:580 JLINK_IsHalted() >0x170 JTAG>  returns FALSE (0002ms, 3269ms total)
T0D08 110:683 JLINK_IsHalted() >0x170 JTAG>  returns FALSE (0002ms, 3269ms total)
T0D08 110:786 JLINK_IsHalted() >0x170 JTAG>  returns FALSE (0003ms, 3269ms total)
T0D08 110:889 JLINK_IsHalted() >0x170 JTAG>  returns FALSE (0002ms, 3269ms total)
T0D08 110:992 JLINK_IsHalted() >0x170 JTAG>  returns FALSE (0003ms, 3269ms total)
T0D08 111:095 JLINK_IsHalted() >0x170 JTAG>  returns FALSE (0002ms, 3269ms total)
T0D08 111:198 JLINK_IsHalted() >0x170 JTAG>  returns FALSE (0003ms, 3269ms total)
T0D08 111:301 JLINK_IsHalted() >0x170 JTAG>  returns FALSE (0002ms, 3269ms total)
T0D08 111:404 JLINK_IsHalted() >0x170 JTAG>  returns FALSE (0002ms, 3269ms total)
T0D08 111:506 JLINK_IsHalted() >0x170 JTAG>  returns FALSE (0002ms, 3269ms total)
T0D08 111:609 JLINK_IsHalted() >0x170 JTAG>  returns FALSE (0002ms, 3269ms total)
T0D08 111:711 JLINK_IsHalted() >0x170 JTAG>  returns FALSE (0002ms, 3269ms total)
T0D08 111:814 JLINK_IsHalted() >0x170 JTAG>  returns FALSE (0002ms, 3269ms total)
T0D08 111:916 JLINK_IsHalted() >0x170 JTAG>  returns FALSE (0003ms, 3269ms total)
T0D08 112:020 JLINK_IsHalted() >0x170 JTAG>  returns FALSE (0002ms, 3269ms total)
T0D08 112:123 JLINK_IsHalted() >0x170 JTAG>  returns FALSE (0001ms, 3269ms total)
T0D08 112:225 JLINK_IsHalted() >0x170 JTAG>  returns FALSE (0002ms, 3269ms total)
T0D08 112:328 JLINK_IsHalted() >0x170 JTAG>  returns FALSE (0003ms, 3269ms total)
T0D08 112:431 JLINK_IsHalted() >0x170 JTAG>  returns FALSE (0002ms, 3269ms total)
T0D08 112:534 JLINK_IsHalted() >0x170 JTAG>  returns FALSE (0003ms, 3269ms total)
T0D08 112:637 JLINK_IsHalted() >0x170 JTAG>  returns FALSE (0002ms, 3269ms total)
T0D08 112:740 JLINK_IsHalted() >0x170 JTAG>  returns FALSE (0002ms, 3269ms total)
T0D08 112:843 JLINK_IsHalted() >0x170 JTAG>  returns FALSE (0003ms, 3269ms total)
T0D08 112:947 JLINK_IsHalted() >0x170 JTAG>  returns FALSE (0002ms, 3269ms total)
T0D08 113:049 JLINK_IsHalted() >0x170 JTAG>  returns FALSE (0002ms, 3269ms total)
T0D08 113:152 JLINK_IsHalted() >0x170 JTAG>  returns FALSE (0002ms, 3269ms total)
T0D08 113:254 JLINK_IsHalted() >0x170 JTAG>  returns FALSE (0002ms, 3269ms total)
T0D08 113:357 JLINK_IsHalted() >0x170 JTAG>  returns FALSE (0002ms, 3269ms total)
T0D08 113:459 JLINK_IsHalted() >0x170 JTAG>  returns FALSE (0002ms, 3269ms total)
T0D08 113:562 JLINK_IsHalted() >0x170 JTAG>  returns FALSE (0002ms, 3269ms total)
T0D08 113:665 JLINK_IsHalted() >0x170 JTAG>  returns FALSE (0001ms, 3269ms total)
T0D08 113:767 JLINK_IsHalted() >0x170 JTAG>  returns FALSE (0002ms, 3269ms total)
T0D08 113:870 JLINK_IsHalted() >0x170 JTAG>  returns FALSE (0003ms, 3269ms total)
T0D08 113:973 JLINK_IsHalted() >0x170 JTAG>  returns FALSE (0002ms, 3269ms total)
T0D08 114:076 JLINK_IsHalted() >0x170 JTAG>  returns FALSE (0003ms, 3269ms total)
T0D08 114:179 JLINK_IsHalted() >0x170 JTAG>  returns FALSE (0002ms, 3269ms total)
T0D08 114:282 JLINK_IsHalted() >0x170 JTAG>  returns FALSE (0002ms, 3269ms total)
T0D08 114:385 JLINK_IsHalted() >0x170 JTAG>  returns FALSE (0002ms, 3269ms total)
T0D08 114:488 JLINK_IsHalted() >0x170 JTAG>  returns FALSE (0002ms, 3269ms total)
T0D08 114:590 JLINK_IsHalted() >0x170 JTAG>  returns FALSE (0002ms, 3269ms total)
T0D08 114:693 JLINK_IsHalted() >0x170 JTAG>  returns FALSE (0002ms, 3269ms total)
T0D08 114:795 JLINK_IsHalted() >0x170 JTAG>  returns FALSE (0002ms, 3269ms total)
T0D08 114:898 JLINK_IsHalted() >0x170 JTAG>  returns FALSE (0003ms, 3269ms total)
T0D08 115:001 JLINK_IsHalted() >0x170 JTAG>  returns FALSE (0003ms, 3269ms total)
T0D08 115:105 JLINK_IsHalted() >0x170 JTAG>  returns FALSE (0002ms, 3269ms total)
T0D08 115:207 JLINK_IsHalted() >0x170 JTAG>  returns FALSE (0002ms, 3269ms total)
T0D08 115:310 JLINK_IsHalted() >0x170 JTAG>  returns FALSE (0002ms, 3269ms total)
T0D08 115:413 JLINK_IsHalted() >0x170 JTAG>  returns FALSE (0002ms, 3269ms total)
T0D08 115:516 JLINK_IsHalted() >0x170 JTAG>  returns FALSE (0002ms, 3269ms total)
T0D08 115:619 JLINK_IsHalted() >0x170 JTAG>  returns FALSE (0003ms, 3269ms total)
T0D08 115:722 JLINK_IsHalted() >0x170 JTAG>  returns FALSE (0002ms, 3269ms total)
T0D08 115:825 JLINK_IsHalted() >0x170 JTAG>  returns FALSE (0003ms, 3269ms total)
T0D08 115:928 JLINK_IsHalted() >0x170 JTAG>  returns FALSE (0003ms, 3269ms total)
T0D08 116:032 JLINK_IsHalted() >0x170 JTAG>  returns FALSE (0002ms, 3269ms total)
T0D08 116:134 JLINK_IsHalted() >0x170 JTAG>  returns FALSE (0002ms, 3269ms total)
T0D08 116:237 JLINK_IsHalted() >0x170 JTAG>  returns FALSE (0002ms, 3269ms total)
T0D08 116:339 JLINK_IsHalted() >0x170 JTAG>  returns FALSE (0002ms, 3269ms total)
T0D08 116:442 JLINK_IsHalted() >0x170 JTAG>  returns FALSE (0002ms, 3269ms total)
T0D08 116:544 JLINK_IsHalted() >0x170 JTAG>  returns FALSE (0002ms, 3269ms total)
T0D08 116:647 JLINK_IsHalted() >0x170 JTAG>  returns FALSE (0002ms, 3269ms total)
T0D08 116:749 JLINK_IsHalted() >0x170 JTAG>  returns FALSE (0002ms, 3269ms total)
T0D08 116:852 JLINK_IsHalted() >0x170 JTAG>  returns FALSE (0002ms, 3269ms total)
T0D08 116:955 JLINK_IsHalted() >0x170 JTAG>  returns FALSE (0002ms, 3269ms total)
T0D08 117:058 JLINK_IsHalted() >0x170 JTAG>  returns FALSE (0002ms, 3269ms total)
T0D08 117:161 JLINK_IsHalted() >0x170 JTAG>  returns FALSE (0003ms, 3269ms total)
T0D08 117:264 JLINK_IsHalted() >0x170 JTAG>  returns FALSE (0002ms, 3269ms total)
T0D08 117:367 JLINK_IsHalted() >0x170 JTAG>  returns FALSE (0002ms, 3269ms total)
T0D08 117:470 JLINK_IsHalted() >0x170 JTAG>  returns FALSE (0002ms, 3269ms total)
T0D08 117:573 JLINK_IsHalted() >0x170 JTAG>  returns FALSE (0002ms, 3269ms total)
T0D08 117:675 JLINK_IsHalted() >0x170 JTAG>  returns FALSE (0002ms, 3269ms total)
T0D08 117:778 JLINK_IsHalted() >0x170 JTAG>  returns FALSE (0002ms, 3269ms total)
T0D08 117:880 JLINK_IsHalted() >0x170 JTAG>  returns FALSE (0002ms, 3269ms total)
T0D08 117:983 JLINK_IsHalted() >0x170 JTAG>  returns FALSE (0003ms, 3269ms total)
T0D08 118:086 JLINK_IsHalted() >0x170 JTAG>  returns FALSE (0003ms, 3269ms total)
T0D08 118:190 JLINK_IsHalted() >0x170 JTAG>  returns FALSE (0002ms, 3269ms total)
T0D08 118:292 JLINK_IsHalted() >0x170 JTAG>  returns FALSE (0002ms, 3269ms total)
T0D08 118:395 JLINK_IsHalted() >0x170 JTAG>  returns FALSE (0002ms, 3269ms total)
T0D08 118:498 JLINK_IsHalted() >0x170 JTAG>  returns FALSE (0001ms, 3269ms total)
T0D08 118:600 JLINK_IsHalted() >0x170 JTAG>  returns FALSE (0002ms, 3269ms total)
T0D08 118:703 JLINK_IsHalted() >0x170 JTAG>  returns FALSE (0003ms, 3269ms total)
T0D08 118:806 JLINK_IsHalted() >0x170 JTAG>  returns FALSE (0002ms, 3269ms total)
T0D08 118:909 JLINK_IsHalted() >0x170 JTAG>  returns FALSE (0002ms, 3269ms total)
T0D08 119:012 JLINK_IsHalted() >0x170 JTAG>  returns FALSE (0003ms, 3269ms total)
T0D08 119:116 JLINK_IsHalted() >0x170 JTAG>  returns FALSE (0002ms, 3269ms total)
T0D08 119:218 JLINK_IsHalted() >0x170 JTAG>  returns FALSE (0002ms, 3269ms total)
T0D08 119:321 JLINK_IsHalted() >0x170 JTAG>  returns FALSE (0002ms, 3269ms total)
T0D08 119:423 JLINK_IsHalted() >0x170 JTAG>  returns FALSE (0002ms, 3269ms total)
T0D08 119:526 JLINK_IsHalted() >0x170 JTAG>  returns FALSE (0002ms, 3269ms total)
T0D08 119:628 JLINK_IsHalted() >0x170 JTAG>  returns FALSE (0002ms, 3269ms total)
T0D08 119:731 JLINK_IsHalted() >0x170 JTAG>  returns FALSE (0002ms, 3269ms total)
T0D08 119:833 JLINK_IsHalted() >0x170 JTAG>  returns FALSE (0002ms, 3269ms total)
T0D08 119:936 JLINK_IsHalted() >0x170 JTAG>  returns FALSE (0002ms, 3269ms total)
T0D08 120:039 JLINK_IsHalted() >0x170 JTAG>  returns FALSE (0002ms, 3269ms total)
T0D08 120:142 JLINK_IsHalted() >0x170 JTAG>  returns FALSE (0002ms, 3269ms total)
T0D08 120:245 JLINK_IsHalted() >0x170 JTAG>  returns FALSE (0003ms, 3269ms total)
T0D08 120:348 JLINK_IsHalted() >0x170 JTAG>  returns FALSE (0002ms, 3269ms total)
T0D08 120:451 JLINK_IsHalted() >0x170 JTAG>  returns FALSE (0002ms, 3269ms total)
T0D08 120:553 JLINK_IsHalted() >0x170 JTAG>  returns FALSE (0002ms, 3269ms total)
T0D08 120:656 JLINK_IsHalted() >0x170 JTAG>  returns FALSE (0002ms, 3269ms total)
T0D08 120:758 JLINK_IsHalted() >0x170 JTAG>  returns FALSE (0002ms, 3269ms total)
T0D08 120:861 JLINK_Halt() >0x218 JTAG> >0x170 JTAG> >0x1598 JTAG>
                JLINK_ReadMemHW(0x400FC040, 0x0004 Bytes, ...) >0x1D8 JTAG> -- Data:  01 00 00 00  returns 0x00 (0002ms, 0000ms total)
               -- MA0 is in flash -- Unmirror addr 0x000003BC -- Unmirror addr 0x00002174  returns 0x00 (0013ms, 3269ms total)
T0D08 120:874 JLINK_IsHalted()  returns TRUE (0000ms, 3282ms total)
T0D08 120:874 JLINK_IsHalted()  returns TRUE (0000ms, 3282ms total)
T0D08 120:874 JLINK_IsHalted()  returns TRUE (0000ms, 3282ms total)
T0D08 120:874 JLINK_ReadReg(R15)  returns 0x000003BC (0000ms, 3282ms total)
T0D08 120:874 JLINK_ReadReg(XPSR)  returns 0x01000000 (0000ms, 3282ms total)
T0D08 120:874 JLINK_ClrBPEx(BPHandle = 0x00000003)  returns 0x00 (0000ms, 3282ms total)
T0D08 120:874 JLINK_ReadMemU32(0xE000ED30, 0x0001 Items, ...) >0x1D8 JTAG> -- Data:  09 00 00 00  returns 0x01 (0003ms, 3282ms total)
T0D08 120:877 JLINK_ReadMemU32(0xE0001028, 0x0001 Items, ...) >0x1D8 JTAG> -- Data:  00 00 00 00  returns 0x01 (0003ms, 3285ms total)
T0D08 120:880 JLINK_ReadMemU32(0xE0001038, 0x0001 Items, ...) >0x1D8 JTAG> -- Data:  00 02 00 00  returns 0x01 (0003ms, 3288ms total)
T0D08 120:883 JLINK_ReadMemU32(0xE0001048, 0x0001 Items, ...) >0x1D8 JTAG> -- Data:  00 00 00 00  returns 0x01 (0002ms, 3291ms total)
T0D08 120:885 JLINK_ReadMemU32(0xE0001058, 0x0001 Items, ...) >0x1D8 JTAG> -- Data:  00 00 00 01  returns 0x01 (0003ms, 3293ms total)
T0D08 120:888 JLINK_ReadReg(R0)  returns 0x00000002 (0000ms, 3296ms total)
T0D08 120:888 JLINK_ReadReg(R1)  returns 0x00000002 (0000ms, 3296ms total)
T0D08 120:888 JLINK_ReadReg(R2)  returns 0x00000010 (0000ms, 3296ms total)
T0D08 120:888 JLINK_ReadReg(R3)  returns 0x5000C208 (0000ms, 3296ms total)
T0D08 120:888 JLINK_ReadReg(R4)  returns 0x00004114 (0000ms, 3296ms total)
T0D08 120:888 JLINK_ReadReg(R5)  returns 0x00000002 (0000ms, 3296ms total)
T0D08 120:888 JLINK_ReadReg(R6)  returns 0x000000F8 (0000ms, 3296ms total)
T0D08 120:888 JLINK_ReadReg(R7)  returns 0x00000000 (0000ms, 3296ms total)
T0D08 120:888 JLINK_ReadReg(R8)  returns 0x00000000 (0000ms, 3296ms total)
T0D08 120:888 JLINK_ReadReg(R9)  returns 0x100001CC (0000ms, 3296ms total)
T0D08 120:888 JLINK_ReadReg(R10)  returns 0x00000000 (0000ms, 3296ms total)
T0D08 120:888 JLINK_ReadReg(R11)  returns 0x00000000 (0000ms, 3296ms total)
T0D08 120:888 JLINK_ReadReg(R12)  returns 0x014DC938 (0000ms, 3296ms total)
T0D08 120:888 JLINK_ReadReg(R13)  returns 0x100025C8 (0000ms, 3296ms total)
T0D08 120:888 JLINK_ReadReg(R14)  returns 0x000003FF (0000ms, 3296ms total)
T0D08 120:888 JLINK_ReadReg(R15)  returns 0x000003BC (0001ms, 3296ms total)
T0D08 120:889 JLINK_ReadReg(XPSR)  returns 0x01000000 (0000ms, 3297ms total)
T0D08 120:889 JLINK_ReadReg(MSP)  returns 0x100025C8 (0000ms, 3297ms total)
T0D08 120:889 JLINK_ReadReg(PSP)  returns 0x10000800 (0000ms, 3297ms total)
T0D08 120:889 JLINK_ReadReg(CFBP)  returns 0x00000000 (0000ms, 3297ms total)
T03EC 120:892 JLINK_ReadMem (0x100025D4, 0x0004 Bytes, ...) >0x548 JTAG> -- Updating C cache (64 bytes @ 0x100025C0) -- Read from C cache (4 bytes @ 0x100025D4) -- Data:  F7 37 00 00  returns 0x00 (0003ms, 3297ms total)
T03EC 120:895 JLINK_ReadMem (0x100025C8, 0x0004 Bytes, ...) -- Read from C cache (4 bytes @ 0x100025C8) -- Data:  14 41 00 00  returns 0x00 (0000ms, 3300ms total)
T03EC 120:895 JLINK_ReadMem (0x100025CC, 0x0004 Bytes, ...) -- Read from C cache (4 bytes @ 0x100025CC) -- Data:  0B 00 00 00  returns 0x00 (0000ms, 3300ms total)
T03EC 120:895 JLINK_ReadMem (0x100025D0, 0x0004 Bytes, ...) -- Read from C cache (4 bytes @ 0x100025D0) -- Data:  F8 00 00 00  returns 0x00 (0000ms, 3300ms total)
T03EC 120:895 JLINK_ReadMem (0x100025E4, 0x0004 Bytes, ...) -- Read from C cache (4 bytes @ 0x100025E4) -- Data:  C1 01 00 00  returns 0x00 (0000ms, 3300ms total)
T03EC 120:895 JLINK_WriteReg(R0, 0x00000002)  returns 0x00 (0000ms, 3300ms total)
T03EC 120:895 JLINK_WriteReg(R1, 0x00000002)  returns 0x00 (0000ms, 3300ms total)
T03EC 120:895 JLINK_WriteReg(R2, 0x00000010)  returns 0x00 (0001ms, 3300ms total)
T03EC 120:896 JLINK_WriteReg(R3, 0x5000C208)  returns 0x00 (0000ms, 3301ms total)
T03EC 120:896 JLINK_WriteReg(R4, 0x00004114)  returns 0x00 (0000ms, 3301ms total)
T03EC 120:896 JLINK_WriteReg(R5, 0x00000002)  returns 0x00 (0000ms, 3301ms total)
T03EC 120:896 JLINK_WriteReg(R6, 0x000000F8)  returns 0x00 (0000ms, 3301ms total)
T03EC 120:896 JLINK_WriteReg(R7, 0x00000000)  returns 0x00 (0000ms, 3301ms total)
T03EC 120:896 JLINK_WriteReg(R8, 0x00000000)  returns 0x00 (0000ms, 3301ms total)
T03EC 120:896 JLINK_WriteReg(R9, 0x100001CC)  returns 0x00 (0000ms, 3301ms total)
T03EC 120:896 JLINK_WriteReg(R10, 0x00000000)  returns 0x00 (0000ms, 3301ms total)
T03EC 120:896 JLINK_WriteReg(R11, 0x00000000)  returns 0x00 (0000ms, 3301ms total)
T03EC 120:896 JLINK_WriteReg(R12, 0x014DC938)  returns 0x00 (0000ms, 3301ms total)
T03EC 120:896 JLINK_WriteReg(R13, 0x100025C8)  returns 0x00 (0000ms, 3301ms total)
T03EC 120:896 JLINK_WriteReg(R14, 0x000003FF)  returns 0x00 (0000ms, 3301ms total)
T03EC 120:896 JLINK_WriteReg(R15, 0x000003BC)  returns 0x00 (0000ms, 3301ms total)
T03EC 120:896 JLINK_WriteReg(XPSR, 0x01000000)  returns 0x00 (0000ms, 3301ms total)
T03EC 120:896 JLINK_WriteReg(MSP, 0x100025C8)  returns 0x00 (0000ms, 3301ms total)
T03EC 120:896 JLINK_WriteReg(PSP, 0x10000800)  returns 0x00 (0000ms, 3301ms total)
T03EC 120:896 JLINK_WriteReg(CFBP, 0x00000000)  returns 0x00 (0000ms, 3301ms total)
T03EC 120:896 JLINK_ReadMem (0x00000000, 0x0004 Bytes, ...) -- Unmirror addr 0x00000000
                JLINK_ReadMemHW(0x400FC040, 0x0004 Bytes, ...) >0x1D8 JTAG> -- Data:  01 00 00 00  returns 0x00 (0002ms, 0000ms total)
               >0x548 JTAG> -- Updating CM cache (64 bytes @ 0x00000000) -- Read from CM cache (4 bytes @ 0x00000000) -- Data:  E8 25 00 10  returns 0x00 (0005ms, 3301ms total)
T03EC 120:902 JLINK_ReadReg(R0)  returns 0x00000002 (0000ms, 3306ms total)
T03EC 120:902 JLINK_ReadReg(R1)  returns 0x00000002 (0000ms, 3306ms total)
T03EC 120:902 JLINK_ReadReg(R2)  returns 0x00000010 (0000ms, 3306ms total)
T03EC 120:902 JLINK_ReadReg(R3)  returns 0x5000C208 (0000ms, 3306ms total)
T03EC 120:902 JLINK_ReadReg(R4)  returns 0x00004114 (0000ms, 3306ms total)
T03EC 120:902 JLINK_ReadReg(R5)  returns 0x00000002 (0000ms, 3306ms total)
T03EC 120:902 JLINK_ReadReg(R6)  returns 0x000000F8 (0000ms, 3306ms total)
T03EC 120:902 JLINK_ReadReg(R7)  returns 0x00000000 (0000ms, 3306ms total)
T03EC 120:902 JLINK_ReadReg(R8)  returns 0x00000000 (0000ms, 3306ms total)
T03EC 120:902 JLINK_ReadReg(R9)  returns 0x100001CC (0000ms, 3306ms total)
T03EC 120:902 JLINK_ReadReg(R10)  returns 0x00000000 (0000ms, 3306ms total)
T03EC 120:902 JLINK_ReadReg(R11)  returns 0x00000000 (0000ms, 3306ms total)
T03EC 120:902 JLINK_ReadReg(R12)  returns 0x014DC938 (0000ms, 3306ms total)
T03EC 120:902 JLINK_ReadReg(R13)  returns 0x100025C8 (0000ms, 3306ms total)
T03EC 120:902 JLINK_ReadReg(R14)  returns 0x000003FF (0000ms, 3306ms total)
T03EC 120:902 JLINK_ReadReg(R15)  returns 0x000003BC (0000ms, 3306ms total)
T03EC 120:902 JLINK_ReadReg(XPSR)  returns 0x01000000 (0000ms, 3306ms total)
T03EC 120:902 JLINK_ReadReg(MSP)  returns 0x100025C8 (0000ms, 3306ms total)
T03EC 120:902 JLINK_ReadReg(PSP)  returns 0x10000800 (0000ms, 3306ms total)
T03EC 120:902 JLINK_ReadReg(CFBP)  returns 0x00000000 (0000ms, 3306ms total)
T03EC 120:902 JLINK_WriteReg(R0, 0x00000002)  returns 0x00 (0000ms, 3306ms total)
T03EC 120:902 JLINK_WriteReg(R1, 0x00000002)  returns 0x00 (0000ms, 3306ms total)
T03EC 120:902 JLINK_WriteReg(R2, 0x00000010)  returns 0x00 (0000ms, 3306ms total)
T03EC 120:902 JLINK_WriteReg(R3, 0x5000C208)  returns 0x00 (0000ms, 3306ms total)
